---
layout: post
title:  "AMBA APB总线协议解析"
date:   2026-04-09 15:36:00 +0700
tags: 
  - IP
  - RTL
  - Verilog HDL
  - IC
  - FPGA
---


# 深入浅出AMBA APB总线协议解析：从架构到实战

在复杂SoC（System on Chip）的架构设计中，AMBA APB（Advanced Peripheral Bus）协议凭借其极简的控制逻辑与优异的功耗表现，始终占据着外设互联的核心地位。作为一名SoC架构师，理解APB不仅要停留在时序表面，更需洞察其在系统整合、时钟树规划及低功耗策略中的深层逻辑。

## 1. APB协议概述与硬件架构

APB协议是AMBA体系中专门为“延迟不敏感（Latency-insensitive）”及“低带宽需求”的外设寄存器访问而定义的总线标准。

**核心架构特点：**

- **非流水线（Non-pipelined）：** 每一笔传输至少占用两个时钟周期，设计逻辑简单。
- **单时钟沿触发：** 所有信号均在PCLK上升沿采样，极大简化了静态时序分析（STA）与自动测试向量生成（ATPG）。
- **辅助总线定位：** 典型拓扑中，APB通过APB Bridge连接至AHB或AXI等高性能主干总线，起到隔离高速翻转信号、降低全局时钟树负载的作用。

### 硬件架构拓扑

APB架构由唯一的**APB主机（通常为APB Bridge）**和多个**APB从机（APB Slave）**组成。

- **APB Bridge：** 在AHB/AXI端作为从机，在APB端作为唯一的主机。它负责锁存地址、数据和控制信号，并执行二级译码以驱动特定从机的`PSELx`信号。
- **APB Slave：** 响应读写请求。其接口被设计为静态的，即在非选通周期内，接口逻辑不产生动态翻转功耗。

## 2. 核心接口信号详解

为了确保模块化的宏单元测试与高效集成，APB定义了一套标准化的信号接口。下表涵盖了从APB2基础版到APB4进阶版的所有核心信号：

|   |   |   |   |
|---|---|---|---|
|信号名称|来源|位宽|含义描述|
|**PCLK**|时钟源|1-bit|总线时钟。所有传输行为均参考其上升沿。|
|**PRESETn**|复位控制器|1-bit|异步复位，低电平有效。**设计建议：需同步释放。**|
|**PADDR**|Master|[31:0]|地址总线。在Setup与Access周期内必须保持绝对稳定。|
|**PSELx**|Master|1-bit|从机选择信号。每一个Slave拥有独立的Select信号。|
|**PENABLE**|Master|1-bit|使能信号。标志传输进入Access周期（Setup后的第二周期）。|
|**PWRITE**|Master|1-bit|传输方向。HIGH为写，LOW为读。|
|**PWDATA**|Master|[31:0]|写数据总线。由Bridge驱动至选中的Slave。|
|**PRDATA**|Slave|[31:0]|读数据总线。由Slave驱动至Bridge。|
|**PREADY**|Slave|1-bit|就绪信号。用于实现反压机制，延长Access周期。|
|**PSLVERR**|Slave|1-bit|错误指示。指示Slave在当前访问中出现异常（如非法地址访问）。|
|**PPROT[2:0]**|Master|3-bit|保护类型。[0]:Privileged; [1]:Secure(LOW); [2]:Instruction。|
|**PSTRB[n:0]**|Master|n-bit|写掩码。`PSTRB[n]`对应`PWDATA[(8n+7):(8n)]`。|

**稳定性要求：** 协议强制要求地址（PADDR）、写方向（PWRITE）及控制信号（PPROT）在整个传输过程（从Setup开始到传输结束）中不得发生跳变，以确保Slave逻辑采样的确定性。

## 3. 数据传输状态机与时序解析

APB的操作由一个三状态机驱动：**IDLE**（空闲）、**SETUP**（建立）、**ACCESS**（访问）。

### 3.1 带等待状态的单笔写操作（Wait States）

在APB3及后续版本中，引入了`PREADY`。这使得APB能集成响应较慢的模拟IP或具有高延迟周期的寄存器。

```text
PCLK    : __|--|__|--|__|--|__|--|__|--|__
PADDR   : XXXXX|  ADDR 1  |XXXXXXXXXXXXXXX (Stable during transfer)
PWRITE  : _____/----------\_______________ (High for Write)
PSEL    : _____/----------\_______________
PENABLE : ___________/----\_______________
PWDATA  : XXXXX|  DATA 1  |XXXXXXXXXXXXXXX (Stable during transfer)
PREADY  : ___________|____/-----\_________ (Slave drives Low to wait)
          T0   T1    T2    T3    T4    T5
               [Setup][---Access---]
```

- **T1-T2 (Setup):** 桥驱动地址和数据，拉高`PSEL`。
- **T2-T4 (Access with Wait):** `PENABLE`拉高。Slave发现数据未准备好，将`PREADY`驱动为LOW。Master必须保持地址和数据稳定。
- **T4:** Slave驱动`PREADY`为HIGH，Master在下一个上升沿采样完成。

### 3.2 带等待状态的单笔读操作

读操作要求Slave在Access周期结束前提供有效数据。

```text
PCLK    : __|--|__|--|__|--|__|--|__|--|__
PADDR   : XXXXX|  ADDR 1  |XXXXXXXXXXXXXXX
PWRITE  : _____\__________/_______________ (Low for Read)
PSEL    : _____/----------\_______________
PENABLE : ___________/----\_______________
PREADY  : ___________|____/-----\_________
PRDATA  : XXXXXXXXXXXXXXXX|  DATA 1  |XXXX
          T0   T1    T2    T3    T4    T5
               [Setup][---Access---]
```

- **T3-T4:** 此时`PENABLE`与`PREADY`均为HIGH，Master在T4上升沿采样`PRDATA`。

### 3.3 异常处理机制 (PSLVERR)

`PSLVERR`信号仅在`PSEL`、`PENABLE`与`PREADY`同时为HIGH的最后周期内有效。

- **架构建议：** 规范建议在信号不被采样时（即上述任一信号为LOW时），将`PSLVERR`驱动为固定低电平，以防止仿真中的不定态（X-state）传播。

## 4. APB协议的版本演进 (APB2 -> APB3 -> APB4)

作为高级架构师，必须理解各版本演进背后的工程考量：

1. **APB2 (AMBA 2.0)：** 基础规范。固定2周期访问。
    - **限制：** 无法处理慢速外设，若Slave处理慢，Bridge必须强制插入系统级等待，效率极低。
2. **APB3 (AMBA 3.0)：** 引入灵活性。
    - **新增 PREADY：** 支持反压机制。Slave可以根据自身状态自主延长访问时间，不再被动匹配2周期。
    - **新增 PSLVERR：** 支持错误反馈。提升了复杂SoC的鲁棒性。
3. **APB4 (AMBA 4.0)：** 增强安全性与复杂数据流支持。
    - **新增 PPROT[2:0]：** 完善安全架构。
        - `PPROT[0]`：Normal (0) vs Privileged (1) 访问。
        - `PPROT[1]`：Secure (0) vs Non-secure (1) 访问。
        - `PPROT[2]`：Data (0) vs Instruction (1) 访问。
    - **新增 PSTRB：** 引入字节掩码，支持稀疏数据传输，允许在32位总线上仅更新特定字节。

## 5. 低功耗设计特性

APB在SoC中扮演着“功耗屏障”的角色，其节能设计主要通过以下机制实现：

- **零转换功耗：** 在非活动期间，APB从机接口保持静默。由于没有流水线，不需要像AHB那样维护忙碌状态（BUSY/IDLE HTRANS）。
- **静态保持（Static Retention）：** APB Bridge在传输结束后应保持地址和写数据信号稳定，而非将其复位或悬空。这样可以显著减少高电容总线上的信号翻转率（Toggle Rate），从而降低动态功耗。
- **局部时钟门控：** APB极简的握手机制使得外设能够轻松实现局部Clock Gating，仅在`PSEL`有效时开启模块时钟。

## 6. AMBA测试方法论 (Test Methodology)

在量产测试中，为了实现对宏单元（Macrocell）的解耦诊断，APB集成通常遵循AMBA测试规范。

- **测试接口控制器 (TIC)：** 通过TIC，外部测试仪器（Tester）可以绕过复杂的CPU指令流，直接向AHB/ASB总线注入测试向量。
- **诊断路径映射：** TIC驱动的AHB事务由APB Bridge实时转化为APB协议格式。这种“系统总线到外设总线”的透传映射，允许设计者在SoC级别对每一个APB外设进行独立的模块化扫描与寄存器功能验证，极大提高了故障覆盖率。

## 7. 总结与设计最佳实践

### 何时选择APB？

- **配置寄存器：** 绝大多数慢速外设的寄存器配置接口。
- **窄带宽外设：** 如UART、定时器、看门狗等。
- **功耗敏感域：** 当需要隔离高速切换信号以节省全局功耗时。

### 设计注意事项：

1. **复位同步释放：** 虽然`PRESETn`是异步复位，但必须在`PCLK`域内同步释放，否则可能导致状态机跳变异常。
2. **字节通道对齐 (Byte Lane Mapping)：** 在处理8位或16位外设接入32位APB总线时，必须严格遵守端序映射（Endianness）。在读操作中，Slave只需在对应的字节通道驱动数据，Bridge负责数据聚合。
3. **Ready信号严谨性：** 如果Slave不支持等待状态，必须将`PREADY`固定接高，不得悬空。

通过对APB协议的深度掌握，架构师能够在保证系统功能的前提下，实现逻辑复杂性与功耗开销的完美平衡。
